T2D14 000:006.337   SEGGER J-Link V7.60a Log File
T2D14 000:006.464   DLL Compiled: Dec 16 2021 10:34:37
T2D14 000:006.471   Logging started @ 2021-12-18 05:44
T2D14 000:006.477 - 6.480ms
T2D14 000:006.488 JLINK_SetWarnOutHandler(...)
T2D14 000:006.496 - 0.010ms
T2D14 000:006.503 JLINK_OpenEx(...)
T2D14 000:009.460   Firmware: J-Link V9 compiled May  7 2021 16:26:12
T2D14 000:009.907   Firmware: J-Link V9 compiled May  7 2021 16:26:12
T2D14 000:010.068   Decompressing FW timestamp took 128 us
T2D14 000:017.043   Hardware: V9.60
T2D14 000:017.067   S/N: 59600166
T2D14 000:017.076   OEM: SEGGER
T2D14 000:017.085   Feature(s): RDI, GDB, FlashDL, FlashBP, JFlash
T2D14 000:018.791   TELNET listener socket opened on port 19021
T2D14 000:018.974   WEBSRV WEBSRV_Init(): Starting webserver thread(s)
T2D14 000:019.139   WEBSRV Webserver running on local port 19080
T2D14 000:033.553 - 27.070ms returns "O.K."
T2D14 000:033.598 JLINK_GetEmuCaps()
T2D14 000:033.606 - 0.010ms returns 0xB9FF7BBF
T2D14 000:033.617 JLINK_TIF_GetAvailable(...)
T2D14 000:033.872 - 0.267ms
T2D14 000:033.896 JLINK_SetErrorOutHandler(...)
T2D14 000:033.903 - 0.010ms
T2D14 000:033.929 JLINK_ExecCommand("ProjectFile = "d:\a_Keil_STM32_WithGit\DAC_LMC660\Project\JLinkSettings.ini"", ...). 
T2D14 000:043.124   Ref file found at: C:\Keil_v5\ARM\Segger\JLinkDevices.ref
T2D14 000:043.229   XML referenced by ref file: C:\Program Files\SEGGER\JLink\JLinkDevices.xml
T2D14 000:043.895   C:\Program Files\SEGGER\JLink\JLinkDevices.xml evaluated successfully.
T2D14 000:075.164 - 41.253ms returns 0x00
T2D14 000:076.212 JLINK_ExecCommand("Device = STM32F103ZE", ...). 
T2D14 000:076.944   Device "STM32F103ZE" selected.
T2D14 000:077.340 - 1.119ms returns 0x00
T2D14 000:077.355 JLINK_ExecCommand("DisableConnectionTimeout", ...). 
T2D14 000:077.365 - 0.005ms returns 0x01
T2D14 000:077.373 JLINK_GetHardwareVersion()
T2D14 000:077.380 - 0.009ms returns 96000
T2D14 000:077.389 JLINK_GetDLLVersion()
T2D14 000:077.394 - 0.008ms returns 76001
T2D14 000:077.402 JLINK_GetOEMString(...)
T2D14 000:077.409 JLINK_GetFirmwareString(...)
T2D14 000:077.420 - 0.014ms
T2D14 000:078.952 JLINK_GetDLLVersion()
T2D14 000:078.961 - 0.012ms returns 76001
T2D14 000:078.969 JLINK_GetCompileDateTime()
T2D14 000:078.979 - 0.013ms
T2D14 000:079.547 JLINK_GetFirmwareString(...)
T2D14 000:079.562 - 0.017ms
T2D14 000:081.538 JLINK_GetHardwareVersion()
T2D14 000:081.547 - 0.011ms returns 96000
T2D14 000:082.062 JLINK_GetSN()
T2D14 000:082.071 - 0.011ms returns 59600166
T2D14 000:082.749 JLINK_GetOEMString(...)
T2D14 000:083.871 JLINK_TIF_Select(JLINKARM_TIF_SWD)
T2D14 000:084.942 - 1.079ms returns 0x00
T2D14 000:084.957 JLINK_HasError()
T2D14 000:084.981 JLINK_SetSpeed(500)
T2D14 000:085.329 - 0.354ms
T2D14 000:085.341 JLINK_GetId()
T2D14 000:087.981   InitTarget() start
T2D14 000:087.998    J-Link Script File: Executing InitTarget()
T2D14 000:098.175   InitTarget() end
T2D14 000:099.778   Found SW-DP with ID 0x1BA01477
T2D14 000:104.368   DPIDR: 0x1BA01477
T2D14 000:106.064   CoreSight SoC-400 or earlier
T2D14 000:106.606   Scanning AP map to find all available APs
T2D14 000:108.707   AP[1]: Stopped AP scan as end of AP map has been reached
T2D14 000:109.228   AP[0]: AHB-AP (IDR: 0x14770011)
T2D14 000:109.727   Iterating through AP map to find AHB-AP to use
T2D14 000:112.171   AP[0]: Core found
T2D14 000:112.880   AP[0]: AHB-AP ROM base: 0xE00FF000
T2D14 000:114.357   CPUID register: 0x411FC231. Implementer code: 0x41 (ARM)
T2D14 000:114.880   Found Cortex-M3 r1p1, Little endian.
T2D14 000:216.537   -- Max. mem block: 0x00010C20
T2D14 000:217.027   CPU_ReadMem(4 bytes @ 0xE000EDF0)
T2D14 000:217.891   CPU_WriteMem(4 bytes @ 0xE000EDF0)
T2D14 000:218.727   CPU_ReadMem(4 bytes @ 0xE0002000)
T2D14 000:220.209   FPUnit: 6 code (BP) slots and 2 literal slots
T2D14 000:220.222   CPU_ReadMem(4 bytes @ 0xE000EDFC)
T2D14 000:221.082   CPU_WriteMem(4 bytes @ 0xE000EDFC)
T2D14 000:221.919   CPU_ReadMem(4 bytes @ 0xE0001000)
T2D14 000:222.788   CPU_WriteMem(4 bytes @ 0xE0001000)
T2D14 000:223.972   CPU_ReadMem(4 bytes @ 0xE000ED88)
T2D14 000:224.831   CPU_WriteMem(4 bytes @ 0xE000ED88)
T2D14 000:225.727   CPU_ReadMem(4 bytes @ 0xE000ED88)
T2D14 000:226.631   CPU_WriteMem(4 bytes @ 0xE000ED88)
T2D14 000:228.469   CoreSight components:
T2D14 000:229.251   ROMTbl[0] @ E00FF000
T2D14 000:229.265   CPU_ReadMem(64 bytes @ 0xE00FF000)
T2D14 000:231.709   CPU_ReadMem(32 bytes @ 0xE000EFE0)
T2D14 000:233.833   [0][0]: E000E000 CID B105E00D PID 001BB000 SCS
T2D14 000:233.847   CPU_ReadMem(32 bytes @ 0xE0001FE0)
T2D14 000:236.783   [0][1]: E0001000 CID B105E00D PID 001BB002 DWT
T2D14 000:236.802   CPU_ReadMem(32 bytes @ 0xE0002FE0)
T2D14 000:239.763   [0][2]: E0002000 CID B105E00D PID 000BB003 FPB
T2D14 000:239.781   CPU_ReadMem(32 bytes @ 0xE0000FE0)
T2D14 000:244.326   [0][3]: E0000000 CID B105E00D PID 001BB001 ITM
T2D14 000:244.354   CPU_ReadMem(32 bytes @ 0xE0040FE0)
T2D14 000:246.561   [0][4]: E0040000 CID B105900D PID 001BB923 TPIU-Lite
T2D14 000:246.575   CPU_ReadMem(32 bytes @ 0xE0041FE0)
T2D14 000:248.894   [0][5]: E0041000 CID B105900D PID 101BB924 ETM-M3
T2D14 000:249.391 - 164.060ms returns 0x1BA01477
T2D14 000:249.419 JLINK_GetDLLVersion()
T2D14 000:249.426 - 0.010ms returns 76001
T2D14 000:249.436 JLINK_CORE_GetFound()
T2D14 000:249.442 - 0.008ms returns 0x30000FF
T2D14 000:249.451 JLINK_GetDebugInfo(0x100 = JLINKARM_ROM_TABLE_ADDR_INDEX)
T2D14 000:249.461   Value=0xE00FF000
T2D14 000:249.469 - 0.021ms returns 0
T2D14 000:250.041 JLINK_GetDebugInfo(0x100 = JLINKARM_ROM_TABLE_ADDR_INDEX)
T2D14 000:250.050   Value=0xE00FF000
T2D14 000:250.058 - 0.021ms returns 0
T2D14 000:250.066 JLINK_GetDebugInfo(0x101 = JLINKARM_DEBUG_INFO_ETM_ADDR_INDEX)
T2D14 000:250.072   Value=0xE0041000
T2D14 000:250.080 - 0.017ms returns 0
T2D14 000:250.087 JLINK_ReadMemEx(0xE0041FD0, 0x20 Bytes, Flags = 0x02000004)
T2D14 000:250.112   CPU_ReadMem(32 bytes @ 0xE0041FD0)
T2D14 000:251.752   Data:  04 00 00 00 00 00 00 00 00 00 00 00 00 00 00 00 ...
T2D14 000:251.767 - 1.683ms returns 32 (0x20)
T2D14 000:251.776 JLINK_GetDebugInfo(0x102 = JLINKARM_DEBUG_INFO_MTB_ADDR_INDEX)
T2D14 000:251.783   Value=0x00000000
T2D14 000:251.792 - 0.018ms returns 0
T2D14 000:251.798 JLINK_GetDebugInfo(0x103 = JLINKARM_DEBUG_INFO_TPIU_ADDR_INDEX)
T2D14 000:251.804   Value=0xE0040000
T2D14 000:251.812 - 0.016ms returns 0
T2D14 000:251.819 JLINK_GetDebugInfo(0x104 = JLINKARM_DEBUG_INFO_ITM_ADDR_INDEX)
T2D14 000:251.825   Value=0xE0000000
T2D14 000:251.833 - 0.016ms returns 0
T2D14 000:251.839 JLINK_GetDebugInfo(0x105 = JLINKARM_DEBUG_INFO_DWT_ADDR_INDEX)
T2D14 000:251.845   Value=0xE0001000
T2D14 000:251.853 - 0.016ms returns 0
T2D14 000:251.860 JLINK_GetDebugInfo(0x106 = JLINKARM_DEBUG_INFO_FPB_ADDR_INDEX)
T2D14 000:251.866   Value=0xE0002000
T2D14 000:251.874 - 0.016ms returns 0
T2D14 000:251.880 JLINK_GetDebugInfo(0x107 = JLINKARM_DEBUG_INFO_NVIC_ADDR_INDEX)
T2D14 000:251.886   Value=0xE000E000
T2D14 000:251.894 - 0.016ms returns 0
T2D14 000:251.901 JLINK_GetDebugInfo(0x10C = JLINKARM_DEBUG_INFO_DBG_ADDR_INDEX)
T2D14 000:251.907   Value=0xE000EDF0
T2D14 000:251.915 - 0.016ms returns 0
T2D14 000:251.921 JLINK_GetDebugInfo(0x01 = Unknown)
T2D14 000:251.928   Value=0x00000000
T2D14 000:251.936 - 0.017ms returns 0
T2D14 000:251.942 JLINK_ReadMemU32(0xE000ED00, 0x1 Items)
T2D14 000:251.959   CPU_ReadMem(4 bytes @ 0xE000ED00)
T2D14 000:252.820   Data:  31 C2 1F 41
T2D14 000:252.833   Debug reg: CPUID
T2D14 000:252.841 - 0.902ms returns 1 (0x1)
T2D14 000:252.849 JLINK_GetDebugInfo(0x10F = JLINKARM_DEBUG_INFO_HAS_CORTEX_M_SECURITY_EXT_INDEX)
T2D14 000:252.856   Value=0x00000000
T2D14 000:252.864 - 0.017ms returns 0
T2D14 000:252.871 JLINK_HasError()
T2D14 000:252.879 JLINK_SetResetType(JLINKARM_CM3_RESET_TYPE_NORMAL)
T2D14 000:252.885 - 0.009ms returns JLINKARM_CM3_RESET_TYPE_NORMAL
T2D14 000:252.892 JLINK_Reset()
T2D14 000:252.909   CPU is running
T2D14 000:252.919   CPU_WriteMem(4 bytes @ 0xE000EDF0)
T2D14 000:253.793   CPU is running
T2D14 000:253.813   CPU_WriteMem(4 bytes @ 0xE000EDFC)
T2D14 000:255.590   Reset: Halt core after reset via DEMCR.VC_CORERESET.
T2D14 000:256.829   Reset: Reset device via AIRCR.SYSRESETREQ.
T2D14 000:256.842   CPU is running
T2D14 000:256.852   CPU_WriteMem(4 bytes @ 0xE000ED0C)
T2D14 000:310.674   CPU_ReadMem(4 bytes @ 0xE000EDF0)
T2D14 000:311.635   CPU_ReadMem(4 bytes @ 0xE000EDF0)
T2D14 000:312.456   CPU_ReadMem(4 bytes @ 0xE000EDF0)
T2D14 000:313.326   CPU_ReadMem(4 bytes @ 0xE000EDF0)
T2D14 000:314.272   CPU_ReadMem(4 bytes @ 0xE000EDF0)
T2D14 000:315.100   CPU_ReadMem(4 bytes @ 0xE000EDF0)
T2D14 000:315.947   CPU_ReadMem(4 bytes @ 0xE000EDF0)
T2D14 000:316.778   CPU_ReadMem(4 bytes @ 0xE000EDF0)
T2D14 000:317.680   CPU_ReadMem(4 bytes @ 0xE000EDF0)
T2D14 000:318.578   CPU_ReadMem(4 bytes @ 0xE000EDF0)
T2D14 000:319.413   CPU_ReadMem(4 bytes @ 0xE000EDF0)
T2D14 000:320.243   CPU_ReadMem(4 bytes @ 0xE000EDF0)
T2D14 000:321.088   CPU_ReadMem(4 bytes @ 0xE000EDF0)
T2D14 000:321.919   CPU_ReadMem(4 bytes @ 0xE000EDF0)
T2D14 000:322.765   CPU_ReadMem(4 bytes @ 0xE000EDF0)
T2D14 000:323.608   CPU_ReadMem(4 bytes @ 0xE000EDF0)
T2D14 000:324.502   CPU_ReadMem(4 bytes @ 0xE000EDF0)
T2D14 000:325.411   CPU_ReadMem(4 bytes @ 0xE000EDF0)
T2D14 000:326.253   CPU_ReadMem(4 bytes @ 0xE000EDF0)
T2D14 000:327.086   CPU_ReadMem(4 bytes @ 0xE000EDF0)
T2D14 000:327.922   CPU_ReadMem(4 bytes @ 0xE000EDF0)
T2D14 000:328.771   CPU_ReadMem(4 bytes @ 0xE000EDF0)
T2D14 000:329.603   CPU_ReadMem(4 bytes @ 0xE000EDF0)
T2D14 000:330.588   CPU_ReadMem(4 bytes @ 0xE000EDF0)
T2D14 000:331.427   CPU_ReadMem(4 bytes @ 0xE000EDF0)
T2D14 000:332.253   CPU_ReadMem(4 bytes @ 0xE000EDF0)
T2D14 000:333.095   CPU_ReadMem(4 bytes @ 0xE000EDF0)
T2D14 000:334.065   CPU_ReadMem(4 bytes @ 0xE000EDF0)
T2D14 000:334.943   CPU_ReadMem(4 bytes @ 0xE000EDF0)
T2D14 000:335.868   CPU_ReadMem(4 bytes @ 0xE000EDF0)
T2D14 000:336.759   CPU_ReadMem(4 bytes @ 0xE000EDF0)
T2D14 000:337.721   CPU_ReadMem(4 bytes @ 0xE000EDF0)
T2D14 000:338.634   CPU_ReadMem(4 bytes @ 0xE000EDF0)
T2D14 000:339.475   CPU_ReadMem(4 bytes @ 0xE000EDF0)
T2D14 000:340.364   CPU_ReadMem(4 bytes @ 0xE000EDF0)
T2D14 000:341.272   CPU_ReadMem(4 bytes @ 0xE000EDF0)
T2D14 000:342.114   CPU_ReadMem(4 bytes @ 0xE000EDF0)
T2D14 000:343.137   CPU_ReadMem(4 bytes @ 0xE000EDF0)
T2D14 000:344.070   CPU_ReadMem(4 bytes @ 0xE000EDF0)
T2D14 000:344.922   CPU_ReadMem(4 bytes @ 0xE000EDF0)
T2D14 000:345.760   CPU_ReadMem(4 bytes @ 0xE000EDF0)
T2D14 000:346.601   CPU_ReadMem(4 bytes @ 0xE000EDF0)
T2D14 000:347.502   CPU_ReadMem(4 bytes @ 0xE000EDF0)
T2D14 000:348.406   CPU_ReadMem(4 bytes @ 0xE000EDF0)
T2D14 000:349.257   CPU_ReadMem(4 bytes @ 0xE000EDF0)
T2D14 000:350.079   CPU_ReadMem(4 bytes @ 0xE000EDF0)
T2D14 000:350.922   CPU_ReadMem(4 bytes @ 0xE000EDF0)
T2D14 000:351.772   CPU_ReadMem(4 bytes @ 0xE000EDF0)
T2D14 000:352.601   CPU_ReadMem(4 bytes @ 0xE000EDF0)
T2D14 000:353.501   CPU_ReadMem(4 bytes @ 0xE000EDF0)
T2D14 000:354.398   CPU_ReadMem(4 bytes @ 0xE000EDF0)
T2D14 000:355.240   CPU_ReadMem(4 bytes @ 0xE000EDF0)
T2D14 000:356.129   CPU_ReadMem(4 bytes @ 0xE000EDF0)
T2D14 000:357.064   CPU_ReadMem(4 bytes @ 0xE000EDF0)
T2D14 000:357.877   CPU_ReadMem(4 bytes @ 0xE000EDF0)
T2D14 000:358.724   CPU_ReadMem(4 bytes @ 0xE000EDF0)
T2D14 000:359.632   CPU_ReadMem(4 bytes @ 0xE000EDF0)
T2D14 000:360.520   CPU_ReadMem(4 bytes @ 0xE000EDF0)
T2D14 000:361.371   CPU_ReadMem(4 bytes @ 0xE000EDF0)
T2D14 000:362.257   CPU_ReadMem(4 bytes @ 0xE000EDF0)
T2D14 000:363.182   CPU_ReadMem(4 bytes @ 0xE000EDF0)
T2D14 000:364.068   CPU_ReadMem(4 bytes @ 0xE000EDF0)
T2D14 000:364.986   CPU_ReadMem(4 bytes @ 0xE000EDF0)
T2D14 000:365.874   CPU_ReadMem(4 bytes @ 0xE000EDF0)
T2D14 000:366.795   CPU_ReadMem(4 bytes @ 0xE000EDF0)
T2D14 000:367.633   CPU_ReadMem(4 bytes @ 0xE000EDF0)
T2D14 000:368.507   CPU_ReadMem(4 bytes @ 0xE000EDF0)
T2D14 000:369.419   CPU_ReadMem(4 bytes @ 0xE000EDF0)
T2D14 000:370.262   CPU_ReadMem(4 bytes @ 0xE000EDF0)
T2D14 000:371.134   CPU_ReadMem(4 bytes @ 0xE000EDF0)
T2D14 000:371.939   CPU_ReadMem(4 bytes @ 0xE000EDF0)
T2D14 000:372.781   CPU_ReadMem(4 bytes @ 0xE000EDF0)
T2D14 000:373.635   CPU_ReadMem(4 bytes @ 0xE000EDF0)
T2D14 000:374.450   CPU_ReadMem(4 bytes @ 0xE000EDF0)
T2D14 000:375.284   CPU_ReadMem(4 bytes @ 0xE000EDF0)
T2D14 000:376.170   CPU_ReadMem(4 bytes @ 0xE000EDF0)
T2D14 000:377.111   CPU_ReadMem(4 bytes @ 0xE000EDF0)
T2D14 000:377.938   CPU_ReadMem(4 bytes @ 0xE000EDF0)
T2D14 000:378.763   CPU_ReadMem(4 bytes @ 0xE000EDF0)
T2D14 000:379.622   CPU_ReadMem(4 bytes @ 0xE000EDF0)
T2D14 000:380.448   CPU_ReadMem(4 bytes @ 0xE000EDF0)
T2D14 000:381.275   CPU_ReadMem(4 bytes @ 0xE000EDF0)
T2D14 000:382.135   CPU_ReadMem(4 bytes @ 0xE000EDF0)
T2D14 000:383.061   CPU_ReadMem(4 bytes @ 0xE000EDF0)
T2D14 000:383.938   CPU_ReadMem(4 bytes @ 0xE000EDF0)
T2D14 000:384.779   CPU_ReadMem(4 bytes @ 0xE000EDF0)
T2D14 000:385.633   CPU_ReadMem(4 bytes @ 0xE000EDF0)
T2D14 000:386.512   CPU_ReadMem(4 bytes @ 0xE000EDF0)
T2D14 000:387.447   CPU_ReadMem(4 bytes @ 0xE000EDF0)
T2D14 000:388.258   CPU_ReadMem(4 bytes @ 0xE000EDF0)
T2D14 000:389.099   CPU_ReadMem(4 bytes @ 0xE000EDF0)
T2D14 000:389.942   CPU_ReadMem(4 bytes @ 0xE000EDF0)
T2D14 000:390.778   CPU_ReadMem(4 bytes @ 0xE000EDF0)
T2D14 000:391.638   CPU_ReadMem(4 bytes @ 0xE000EDF0)
T2D14 000:392.449   CPU_ReadMem(4 bytes @ 0xE000EDF0)
T2D14 000:393.277   CPU_ReadMem(4 bytes @ 0xE000EDF0)
T2D14 000:394.143   CPU_ReadMem(4 bytes @ 0xE000EDF0)
T2D14 000:395.065   CPU_ReadMem(4 bytes @ 0xE000EDF0)
T2D14 000:395.942   CPU_ReadMem(4 bytes @ 0xE000EDF0)
T2D14 000:396.769   CPU_ReadMem(4 bytes @ 0xE000EDF0)
T2D14 000:397.606   CPU_ReadMem(4 bytes @ 0xE000EDF0)
T2D14 000:398.515   CPU_ReadMem(4 bytes @ 0xE000EDF0)
T2D14 000:399.395   CPU_ReadMem(4 bytes @ 0xE000EDF0)
T2D14 000:400.251   CPU_ReadMem(4 bytes @ 0xE000EDF0)
T2D14 000:401.135   CPU_ReadMem(4 bytes @ 0xE000EDF0)
T2D14 000:402.063   CPU_ReadMem(4 bytes @ 0xE000EDF0)
T2D14 000:402.897   CPU_ReadMem(4 bytes @ 0xE000EDF0)
T2D14 000:403.734   CPU_ReadMem(4 bytes @ 0xE000EDF0)
T2D14 000:404.576   CPU_ReadMem(4 bytes @ 0xE000EDF0)
T2D14 000:405.388   CPU_ReadMem(4 bytes @ 0xE000EDF0)
T2D14 000:406.235   CPU_ReadMem(4 bytes @ 0xE000EDF0)
T2D14 000:407.084   CPU_ReadMem(4 bytes @ 0xE000EDF0)
T2D14 000:407.923   CPU_ReadMem(4 bytes @ 0xE000EDF0)
T2D14 000:408.763   CPU_ReadMem(4 bytes @ 0xE000EDF0)
T2D14 000:409.660   CPU_ReadMem(4 bytes @ 0xE000EDF0)
T2D14 000:410.567   CPU_ReadMem(4 bytes @ 0xE000EDF0)
T2D14 000:411.380   CPU_ReadMem(4 bytes @ 0xE000EDF0)
T2D14 000:412.234   CPU_ReadMem(4 bytes @ 0xE000EDF0)
T2D14 000:413.063   CPU_ReadMem(4 bytes @ 0xE000EDF0)
T2D14 000:413.923   CPU_ReadMem(4 bytes @ 0xE000EDF0)
T2D14 000:414.764   CPU_ReadMem(4 bytes @ 0xE000EDF0)
T2D14 000:415.638   CPU_ReadMem(4 bytes @ 0xE000EDF0)
T2D14 000:416.560   CPU_ReadMem(4 bytes @ 0xE000EDF0)
T2D14 000:417.373   CPU_ReadMem(4 bytes @ 0xE000EDF0)
T2D14 000:418.223   CPU_ReadMem(4 bytes @ 0xE000EDF0)
T2D14 000:419.061   CPU_ReadMem(4 bytes @ 0xE000EDF0)
T2D14 000:419.910   CPU_ReadMem(4 bytes @ 0xE000EDF0)
T2D14 000:420.813   CPU_ReadMem(4 bytes @ 0xE000EDF0)
T2D14 000:421.742   CPU_ReadMem(4 bytes @ 0xE000EDF0)
T2D14 000:422.642   CPU_ReadMem(4 bytes @ 0xE000EDF0)
T2D14 000:423.550   CPU_ReadMem(4 bytes @ 0xE000EDF0)
T2D14 000:424.379   CPU_ReadMem(4 bytes @ 0xE000EDF0)
T2D14 000:425.205   CPU_ReadMem(4 bytes @ 0xE000EDF0)
T2D14 000:426.072   CPU_ReadMem(4 bytes @ 0xE000EDF0)
T2D14 000:427.066   CPU_ReadMem(4 bytes @ 0xE000EDF0)
T2D14 000:428.065   CPU_ReadMem(4 bytes @ 0xE000EDF0)
T2D14 000:428.981   CPU_ReadMem(4 bytes @ 0xE000EDF0)
T2D14 000:429.816   CPU_ReadMem(4 bytes @ 0xE000EDF0)
T2D14 000:430.649   CPU_ReadMem(4 bytes @ 0xE000EDF0)
T2D14 000:431.465   CPU_ReadMem(4 bytes @ 0xE000EDF0)
T2D14 000:432.306   CPU_ReadMem(4 bytes @ 0xE000EDF0)
T2D14 000:433.166   CPU_ReadMem(4 bytes @ 0xE000EDF0)
T2D14 000:434.064   CPU_ReadMem(4 bytes @ 0xE000EDF0)
T2D14 000:434.961   CPU_ReadMem(4 bytes @ 0xE000EDF0)
T2D14 000:435.943   CPU_ReadMem(4 bytes @ 0xE000EDF0)
T2D14 000:436.776   CPU_ReadMem(4 bytes @ 0xE000EDF0)
T2D14 000:437.612   CPU_ReadMem(4 bytes @ 0xE000EDF0)
T2D14 000:438.504   CPU_ReadMem(4 bytes @ 0xE000EDF0)
T2D14 000:439.401   CPU_ReadMem(4 bytes @ 0xE000EDF0)
T2D14 000:440.259   CPU_ReadMem(4 bytes @ 0xE000EDF0)
T2D14 000:441.137   CPU_ReadMem(4 bytes @ 0xE000EDF0)
T2D14 000:442.074   CPU_ReadMem(4 bytes @ 0xE000EDF0)
T2D14 000:442.889   CPU_ReadMem(4 bytes @ 0xE000EDF0)
T2D14 000:443.764   CPU_ReadMem(4 bytes @ 0xE000EDF0)
T2D14 000:444.575   CPU_ReadMem(4 bytes @ 0xE000EDF0)
T2D14 000:445.388   CPU_ReadMem(4 bytes @ 0xE000EDF0)
T2D14 000:446.239   CPU_ReadMem(4 bytes @ 0xE000EDF0)
T2D14 000:447.073   CPU_ReadMem(4 bytes @ 0xE000EDF0)
T2D14 000:447.926   CPU_ReadMem(4 bytes @ 0xE000EDF0)
T2D14 000:448.766   CPU_ReadMem(4 bytes @ 0xE000EDF0)
T2D14 000:449.586   CPU_ReadMem(4 bytes @ 0xE000EDF0)
T2D14 000:450.408   CPU_ReadMem(4 bytes @ 0xE000EDF0)
T2D14 000:451.264   CPU_ReadMem(4 bytes @ 0xE000EDF0)
T2D14 000:452.104   CPU_ReadMem(4 bytes @ 0xE000EDF0)
T2D14 000:452.943   CPU_ReadMem(4 bytes @ 0xE000EDF0)
T2D14 000:453.772   CPU_ReadMem(4 bytes @ 0xE000EDF0)
T2D14 000:454.637   CPU_ReadMem(4 bytes @ 0xE000EDF0)
T2D14 000:455.501   CPU_ReadMem(4 bytes @ 0xE000EDF0)
T2D14 000:456.414   CPU_ReadMem(4 bytes @ 0xE000EDF0)
T2D14 000:457.260   CPU_ReadMem(4 bytes @ 0xE000EDF0)
T2D14 000:458.107   CPU_ReadMem(4 bytes @ 0xE000EDF0)
T2D14 000:458.954   CPU_ReadMem(4 bytes @ 0xE000EDF0)
T2D14 000:459.799   CPU_ReadMem(4 bytes @ 0xE000EDF0)
T2D14 000:460.636   CPU_ReadMem(4 bytes @ 0xE000EDF0)
T2D14 000:461.552   CPU_ReadMem(4 bytes @ 0xE000EDF0)
T2D14 000:462.422   CPU_ReadMem(4 bytes @ 0xE000EDF0)
T2D14 000:463.259   CPU_ReadMem(4 bytes @ 0xE000EDF0)
T2D14 000:464.129   CPU_ReadMem(4 bytes @ 0xE000EDF0)
T2D14 000:465.067   CPU_ReadMem(4 bytes @ 0xE000EDF0)
T2D14 000:465.919   CPU_ReadMem(4 bytes @ 0xE000EDF0)
T2D14 000:466.756   CPU_ReadMem(4 bytes @ 0xE000EDF0)
T2D14 000:467.641   CPU_ReadMem(4 bytes @ 0xE000EDF0)
T2D14 000:468.572   CPU_ReadMem(4 bytes @ 0xE000EDF0)
T2D14 000:469.401   CPU_ReadMem(4 bytes @ 0xE000EDF0)
T2D14 000:470.237   CPU_ReadMem(4 bytes @ 0xE000EDF0)
T2D14 000:471.070   CPU_ReadMem(4 bytes @ 0xE000EDF0)
T2D14 000:471.926   CPU_ReadMem(4 bytes @ 0xE000EDF0)
T2D14 000:472.755   CPU_ReadMem(4 bytes @ 0xE000EDF0)
T2D14 000:473.587   CPU_ReadMem(4 bytes @ 0xE000EDF0)
T2D14 000:474.422   CPU_ReadMem(4 bytes @ 0xE000EDF0)
T2D14 000:475.267   CPU_ReadMem(4 bytes @ 0xE000EDF0)
T2D14 000:476.129   CPU_ReadMem(4 bytes @ 0xE000EDF0)
T2D14 000:477.083   CPU_ReadMem(4 bytes @ 0xE000EDF0)
T2D14 000:477.909   CPU_ReadMem(4 bytes @ 0xE000EDF0)
T2D14 000:478.742   CPU_ReadMem(4 bytes @ 0xE000EDF0)
T2D14 000:479.587   CPU_ReadMem(4 bytes @ 0xE000EDF0)
T2D14 000:480.393   CPU_ReadMem(4 bytes @ 0xE000EDF0)
T2D14 000:481.244   CPU_ReadMem(4 bytes @ 0xE000EDF0)
T2D14 000:482.079   CPU_ReadMem(4 bytes @ 0xE000EDF0)
T2D14 000:482.926   CPU_ReadMem(4 bytes @ 0xE000EDF0)
T2D14 000:483.765   CPU_ReadMem(4 bytes @ 0xE000EDF0)
T2D14 000:484.615   CPU_ReadMem(4 bytes @ 0xE000EDF0)
T2D14 000:485.516   CPU_ReadMem(4 bytes @ 0xE000EDF0)
T2D14 000:486.401   CPU_ReadMem(4 bytes @ 0xE000EDF0)
T2D14 000:487.244   CPU_ReadMem(4 bytes @ 0xE000EDF0)
T2D14 000:488.078   CPU_ReadMem(4 bytes @ 0xE000EDF0)
T2D14 000:488.929   CPU_ReadMem(4 bytes @ 0xE000EDF0)
T2D14 000:489.761   CPU_ReadMem(4 bytes @ 0xE000EDF0)
T2D14 000:490.636   CPU_ReadMem(4 bytes @ 0xE000EDF0)
T2D14 000:491.568   CPU_ReadMem(4 bytes @ 0xE000EDF0)
T2D14 000:492.391   CPU_ReadMem(4 bytes @ 0xE000EDF0)
T2D14 000:493.234   CPU_ReadMem(4 bytes @ 0xE000EDF0)
T2D14 000:494.128   CPU_ReadMem(4 bytes @ 0xE000EDF0)
T2D14 000:495.064   CPU_ReadMem(4 bytes @ 0xE000EDF0)
T2D14 000:495.908   CPU_ReadMem(4 bytes @ 0xE000EDF0)
T2D14 000:496.742   CPU_ReadMem(4 bytes @ 0xE000EDF0)
T2D14 000:497.570   CPU_ReadMem(4 bytes @ 0xE000EDF0)
T2D14 000:498.404   CPU_ReadMem(4 bytes @ 0xE000EDF0)
T2D14 000:499.245   CPU_ReadMem(4 bytes @ 0xE000EDF0)
T2D14 000:500.085   CPU_ReadMem(4 bytes @ 0xE000EDF0)
T2D14 000:500.947   CPU_ReadMem(4 bytes @ 0xE000EDF0)
T2D14 000:501.914   CPU_ReadMem(4 bytes @ 0xE000EDF0)
T2D14 000:502.762   CPU_ReadMem(4 bytes @ 0xE000EDF0)
T2D14 000:503.634   CPU_ReadMem(4 bytes @ 0xE000EDF0)
T2D14 000:504.531   CPU_ReadMem(4 bytes @ 0xE000EDF0)
T2D14 000:505.365   CPU_ReadMem(4 bytes @ 0xE000EDF0)
T2D14 000:506.201   CPU_ReadMem(4 bytes @ 0xE000EDF0)
T2D14 000:507.068   CPU_ReadMem(4 bytes @ 0xE000EDF0)
T2D14 000:507.901   CPU_ReadMem(4 bytes @ 0xE000EDF0)
T2D14 000:508.729   CPU_ReadMem(4 bytes @ 0xE000EDF0)
T2D14 000:509.640   CPU_ReadMem(4 bytes @ 0xE000EDF0)
T2D14 000:510.527   CPU_ReadMem(4 bytes @ 0xE000EDF0)
T2D14 000:511.381   CPU_ReadMem(4 bytes @ 0xE000EDF0)
T2D14 000:512.264   CPU_ReadMem(4 bytes @ 0xE000EDF0)
T2D14 000:513.176   CPU_ReadMem(4 bytes @ 0xE000EDF0)
T2D14 000:514.068   CPU_ReadMem(4 bytes @ 0xE000EDF0)
T2D14 000:514.997   CPU_ReadMem(4 bytes @ 0xE000EDF0)
T2D14 000:515.973   CPU_ReadMem(4 bytes @ 0xE000EDF0)
T2D14 000:516.893   CPU_ReadMem(4 bytes @ 0xE000EDF0)
T2D14 000:517.770   CPU_ReadMem(4 bytes @ 0xE000EDF0)
T2D14 000:518.605   CPU_ReadMem(4 bytes @ 0xE000EDF0)
T2D14 000:519.510   CPU_ReadMem(4 bytes @ 0xE000EDF0)
T2D14 000:520.406   CPU_ReadMem(4 bytes @ 0xE000EDF0)
T2D14 000:521.265   CPU_ReadMem(4 bytes @ 0xE000EDF0)
T2D14 000:522.153   CPU_ReadMem(4 bytes @ 0xE000EDF0)
T2D14 000:523.068   CPU_ReadMem(4 bytes @ 0xE000EDF0)
T2D14 000:523.898   CPU_ReadMem(4 bytes @ 0xE000EDF0)
T2D14 000:524.765   CPU_ReadMem(4 bytes @ 0xE000EDF0)
T2D14 000:525.733   CPU_ReadMem(4 bytes @ 0xE000EDF0)
T2D14 000:526.734   CPU_ReadMem(4 bytes @ 0xE000EDF0)
T2D14 000:527.642   CPU_ReadMem(4 bytes @ 0xE000EDF0)
T2D14 000:528.518   CPU_ReadMem(4 bytes @ 0xE000EDF0)
T2D14 000:529.443   CPU_ReadMem(4 bytes @ 0xE000EDF0)
T2D14 000:530.276   CPU_ReadMem(4 bytes @ 0xE000EDF0)
T2D14 000:531.146   CPU_ReadMem(4 bytes @ 0xE000EDF0)
T2D14 000:531.959   CPU_ReadMem(4 bytes @ 0xE000EDF0)
T2D14 000:532.803   CPU_ReadMem(4 bytes @ 0xE000EDF0)
T2D14 000:533.654   CPU_ReadMem(4 bytes @ 0xE000EDF0)
T2D14 000:534.511   CPU_ReadMem(4 bytes @ 0xE000EDF0)
T2D14 000:535.328   CPU_ReadMem(4 bytes @ 0xE000EDF0)
T2D14 000:536.171   CPU_ReadMem(4 bytes @ 0xE000EDF0)
T2D14 000:537.067   CPU_ReadMem(4 bytes @ 0xE000EDF0)
T2D14 000:537.992   CPU_ReadMem(4 bytes @ 0xE000EDF0)
T2D14 000:538.894   CPU_ReadMem(4 bytes @ 0xE000EDF0)
T2D14 000:539.797   CPU_ReadMem(4 bytes @ 0xE000EDF0)
T2D14 000:540.610   CPU_ReadMem(4 bytes @ 0xE000EDF0)
T2D14 000:541.563   CPU_ReadMem(4 bytes @ 0xE000EDF0)
T2D14 000:542.428   CPU_ReadMem(4 bytes @ 0xE000EDF0)
T2D14 000:543.257   CPU_ReadMem(4 bytes @ 0xE000EDF0)
T2D14 000:544.132   CPU_ReadMem(4 bytes @ 0xE000EDF0)
T2D14 000:544.945   CPU_ReadMem(4 bytes @ 0xE000EDF0)
T2D14 000:545.786   CPU_ReadMem(4 bytes @ 0xE000EDF0)
T2D14 000:546.643   CPU_ReadMem(4 bytes @ 0xE000EDF0)
T2D14 000:547.449   CPU_ReadMem(4 bytes @ 0xE000EDF0)
T2D14 000:548.291   CPU_ReadMem(4 bytes @ 0xE000EDF0)
T2D14 000:549.131   CPU_ReadMem(4 bytes @ 0xE000EDF0)
T2D14 000:549.965   CPU_ReadMem(4 bytes @ 0xE000EDF0)
T2D14 000:550.800   CPU_ReadMem(4 bytes @ 0xE000EDF0)
T2D14 000:551.646   CPU_ReadMem(4 bytes @ 0xE000EDF0)
T2D14 000:552.518   CPU_ReadMem(4 bytes @ 0xE000EDF0)
T2D14 000:553.449   CPU_ReadMem(4 bytes @ 0xE000EDF0)
T2D14 000:554.285   CPU_ReadMem(4 bytes @ 0xE000EDF0)
T2D14 000:555.136   CPU_ReadMem(4 bytes @ 0xE000EDF0)
T2D14 000:556.072   CPU_ReadMem(4 bytes @ 0xE000EDF0)
T2D14 000:556.947   CPU_ReadMem(4 bytes @ 0xE000EDF0)
T2D14 000:557.767   CPU_ReadMem(4 bytes @ 0xE000EDF0)
T2D14 000:558.645   CPU_ReadMem(4 bytes @ 0xE000EDF0)
T2D14 000:559.561   CPU_ReadMem(4 bytes @ 0xE000EDF0)
T2D14 000:560.409   CPU_ReadMem(4 bytes @ 0xE000EDF0)
T2D14 000:561.246   CPU_ReadMem(4 bytes @ 0xE000EDF0)
T2D14 000:562.757   Reset: CPU may have not been reset (DHCSR.S_RESET_ST never gets set).
T2D14 000:563.278   Reset: Using fallback: Reset pin.
T2D14 000:563.290   CPU is running
T2D14 000:563.309   CPU_WriteMem(4 bytes @ 0xE000EDF0)
T2D14 000:564.153   CPU is running
T2D14 000:564.172   CPU_WriteMem(4 bytes @ 0xE000EDFC)
T2D14 000:565.653   Reset: Halt core after reset via DEMCR.VC_CORERESET.
T2D14 000:566.173   Reset: Reset device via reset pin
T2D14 000:699.726   CPU_WriteMem(4 bytes @ 0xE000EDFC)
T2D14 000:705.982   CPU_ReadMem(4 bytes @ 0xE000EDF0)
T2D14 000:706.956   CPU_WriteMem(4 bytes @ 0xE0002000)
T2D14 000:707.782   CPU_ReadMem(4 bytes @ 0xE000EDFC)
T2D14 000:708.613   CPU_ReadMem(4 bytes @ 0xE0001000)
T2D14 000:709.529 - 456.641ms
T2D14 000:709.546 JLINK_Halt()
T2D14 000:709.552 - 0.009ms returns 0x00
T2D14 000:709.562 JLINK_ReadMemU32(0xE000EDF0, 0x1 Items)
T2D14 000:709.575   CPU_ReadMem(4 bytes @ 0xE000EDF0)
T2D14 000:710.425   Data:  03 00 03 00
T2D14 000:710.440   Debug reg: DHCSR
T2D14 000:710.448 - 0.889ms returns 1 (0x1)
T2D14 000:710.460 JLINK_WriteU32_64(0xE000EDF0, 0xA05F0003)
T2D14 000:710.472   Debug reg: DHCSR
T2D14 000:710.688   CPU_WriteMem(4 bytes @ 0xE000EDF0)
T2D14 000:711.528 - 1.072ms returns 0 (0x00000000)
T2D14 000:711.543 JLINK_WriteU32_64(0xE000EDFC, 0x01000000)
T2D14 000:711.550   Debug reg: DEMCR
T2D14 000:711.563   CPU_WriteMem(4 bytes @ 0xE000EDFC)
T2D14 000:712.496 - 0.957ms returns 0 (0x00000000)
T2D14 000:714.694 JLINK_GetHWStatus(...)
T2D14 000:714.983 - 0.300ms returns 0
T2D14 000:716.786 JLINK_GetNumBPUnits(Type = 0xFFFFFF00)
T2D14 000:716.798 - 0.014ms returns 0x06
T2D14 000:716.806 JLINK_GetNumBPUnits(Type = 0xF0)
T2D14 000:716.812 - 0.009ms returns 0x2000
T2D14 000:716.819 JLINK_GetNumWPUnits()
T2D14 000:716.824 - 0.008ms returns 4
T2D14 000:718.373 JLINK_GetSpeed()
T2D14 000:718.382 - 0.012ms returns 500
T2D14 000:719.391 JLINK_ReadMemU32(0xE000E004, 0x1 Items)
T2D14 000:719.414   CPU_ReadMem(4 bytes @ 0xE000E004)
T2D14 000:720.366   Data:  01 00 00 00
T2D14 000:720.382 - 0.995ms returns 1 (0x1)
T2D14 000:720.392 JLINK_ReadMemU32(0xE000E004, 0x1 Items)
T2D14 000:720.404   CPU_ReadMem(4 bytes @ 0xE000E004)
T2D14 000:721.344   Data:  01 00 00 00
T2D14 000:721.355 - 0.966ms returns 1 (0x1)
T2D14 000:721.363 JLINK_WriteMemEx(0xE0001000, 0x0000001C Bytes, Flags = 0x02000004)
T2D14 000:721.370   Data:  01 00 00 00 00 00 00 00 00 00 00 00 00 00 00 00 ...
T2D14 000:721.386   CPU_WriteMem(28 bytes @ 0xE0001000)
T2D14 000:722.880 - 1.521ms returns 0x1C
T2D14 000:722.894 JLINK_Halt()
T2D14 000:722.900 - 0.009ms returns 0x00
T2D14 000:722.907 JLINK_IsHalted()
T2D14 000:722.914 - 0.010ms returns TRUE
T2D14 000:724.185 JLINK_WriteMem(0x20000000, 0x164 Bytes, ...)
T2D14 000:724.195   Data:  00 BE 0A E0 0D 78 2D 06 68 40 08 24 40 00 00 D3 ...
T2D14 000:724.378   CPU_WriteMem(356 bytes @ 0x20000000)
T2D14 000:734.017 - 9.855ms returns 0x164
T2D14 000:734.108 JLINK_HasError()
T2D14 000:734.119 JLINK_WriteReg(R0, 0x08000000)
T2D14 000:734.133 - 0.017ms returns 0
T2D14 000:734.141 JLINK_WriteReg(R1, 0x00B71B00)
T2D14 000:734.148 - 0.010ms returns 0
T2D14 000:734.155 JLINK_WriteReg(R2, 0x00000001)
T2D14 000:734.161 - 0.009ms returns 0
T2D14 000:734.168 JLINK_WriteReg(R3, 0x00000000)
T2D14 000:734.175 - 0.009ms returns 0
T2D14 000:734.181 JLINK_WriteReg(R4, 0x00000000)
T2D14 000:734.188 - 0.009ms returns 0
T2D14 000:734.194 JLINK_WriteReg(R5, 0x00000000)
T2D14 000:734.201 - 0.009ms returns 0
T2D14 000:734.207 JLINK_WriteReg(R6, 0x00000000)
T2D14 000:734.214 - 0.009ms returns 0
T2D14 000:734.220 JLINK_WriteReg(R7, 0x00000000)
T2D14 000:734.226 - 0.009ms returns 0
T2D14 000:734.233 JLINK_WriteReg(R8, 0x00000000)
T2D14 000:734.249 - 0.019ms returns 0
T2D14 000:734.256 JLINK_WriteReg(R9, 0x20000160)
T2D14 000:734.262 - 0.009ms returns 0
T2D14 000:734.269 JLINK_WriteReg(R10, 0x00000000)
T2D14 000:734.275 - 0.009ms returns 0
T2D14 000:734.282 JLINK_WriteReg(R11, 0x00000000)
T2D14 000:734.288 - 0.009ms returns 0
T2D14 000:734.295 JLINK_WriteReg(R12, 0x00000000)
T2D14 000:734.301 - 0.009ms returns 0
T2D14 000:734.308 JLINK_WriteReg(R13 (SP), 0x20001000)
T2D14 000:734.316 - 0.017ms returns 0
T2D14 000:734.331 JLINK_WriteReg(R14, 0x20000001)
T2D14 000:734.337 - 0.009ms returns 0
T2D14 000:734.344 JLINK_WriteReg(R15 (PC), 0x20000038)
T2D14 000:734.351 - 0.009ms returns 0
T2D14 000:734.358 JLINK_WriteReg(XPSR, 0x01000000)
T2D14 000:734.364 - 0.009ms returns 0
T2D14 000:734.371 JLINK_WriteReg(MSP, 0x20001000)
T2D14 000:734.377 - 0.009ms returns 0
T2D14 000:734.384 JLINK_WriteReg(PSP, 0x20001000)
T2D14 000:734.390 - 0.009ms returns 0
T2D14 000:734.397 JLINK_WriteReg(CFBP, 0x00000000)
T2D14 000:734.403 - 0.009ms returns 0
T2D14 000:734.410 JLINK_SetBPEx(Addr = 0x20000000, Type = 0xFFFFFFF2)
T2D14 000:734.424   CPU_ReadMem(2 bytes @ 0x20000000)
T2D14 000:735.323 - 0.919ms returns 0x00000001
T2D14 000:735.335 JLINK_Go()
T2D14 000:735.344   CPU_WriteMem(2 bytes @ 0x20000000)
T2D14 000:736.158   CPU_ReadMem(4 bytes @ 0xE0001000)
T2D14 000:736.987   CPU_WriteMem(4 bytes @ 0xE0002008)
T2D14 000:736.998   CPU_WriteMem(4 bytes @ 0xE000200C)
T2D14 000:737.007   CPU_WriteMem(4 bytes @ 0xE0002010)
T2D14 000:737.016   CPU_WriteMem(4 bytes @ 0xE0002014)
T2D14 000:737.025   CPU_WriteMem(4 bytes @ 0xE0002018)
T2D14 000:737.033   CPU_WriteMem(4 bytes @ 0xE000201C)
T2D14 000:741.245   CPU_WriteMem(4 bytes @ 0xE0001004)
T2D14 000:752.414 - 17.096ms
T2D14 000:752.444 JLINK_IsHalted()
T2D14 000:763.882   CPU_ReadMem(2 bytes @ 0x20000000)
T2D14 000:764.801 - 12.365ms returns TRUE
T2D14 000:764.823 JLINK_ReadReg(R15 (PC))
T2D14 000:764.835 - 0.014ms returns 0x20000000
T2D14 000:764.845 JLINK_ClrBPEx(BPHandle = 0x00000001)
T2D14 000:764.852 - 0.010ms returns 0x00
T2D14 000:764.862 JLINK_ReadReg(R0)
T2D14 000:764.869 - 0.009ms returns 0x00000000
T2D14 000:764.924 JLINK_HasError()
T2D14 000:764.934 JLINK_WriteReg(R0, 0x08000000)
T2D14 000:764.942 - 0.010ms returns 0
T2D14 000:764.949 JLINK_WriteReg(R1, 0x00B71B00)
T2D14 000:764.955 - 0.009ms returns 0
T2D14 000:764.962 JLINK_WriteReg(R2, 0x00000001)
T2D14 000:764.968 - 0.009ms returns 0
T2D14 000:764.975 JLINK_WriteReg(R3, 0x00000000)
T2D14 000:764.981 - 0.009ms returns 0
T2D14 000:764.988 JLINK_WriteReg(R4, 0x00000000)
T2D14 000:764.994 - 0.009ms returns 0
T2D14 000:765.001 JLINK_WriteReg(R5, 0x00000000)
T2D14 000:765.007 - 0.009ms returns 0
T2D14 000:765.014 JLINK_WriteReg(R6, 0x00000000)
T2D14 000:765.020 - 0.009ms returns 0
T2D14 000:765.027 JLINK_WriteReg(R7, 0x00000000)
T2D14 000:765.033 - 0.009ms returns 0
T2D14 000:765.040 JLINK_WriteReg(R8, 0x00000000)
T2D14 000:765.046 - 0.009ms returns 0
T2D14 000:765.053 JLINK_WriteReg(R9, 0x20000160)
T2D14 000:765.059 - 0.009ms returns 0
T2D14 000:765.065 JLINK_WriteReg(R10, 0x00000000)
T2D14 000:765.071 - 0.009ms returns 0
T2D14 000:765.078 JLINK_WriteReg(R11, 0x00000000)
T2D14 000:765.084 - 0.009ms returns 0
T2D14 000:765.091 JLINK_WriteReg(R12, 0x00000000)
T2D14 000:765.097 - 0.009ms returns 0
T2D14 000:765.103 JLINK_WriteReg(R13 (SP), 0x20001000)
T2D14 000:765.110 - 0.009ms returns 0
T2D14 000:765.117 JLINK_WriteReg(R14, 0x20000001)
T2D14 000:765.123 - 0.009ms returns 0
T2D14 000:765.130 JLINK_WriteReg(R15 (PC), 0x2000007C)
T2D14 000:765.136 - 0.009ms returns 0
T2D14 000:765.143 JLINK_WriteReg(XPSR, 0x01000000)
T2D14 000:765.149 - 0.009ms returns 0
T2D14 000:765.156 JLINK_WriteReg(MSP, 0x20001000)
T2D14 000:765.162 - 0.009ms returns 0
T2D14 000:765.169 JLINK_WriteReg(PSP, 0x20001000)
T2D14 000:765.175 - 0.009ms returns 0
T2D14 000:765.181 JLINK_WriteReg(CFBP, 0x00000000)
T2D14 000:765.188 - 0.009ms returns 0
T2D14 000:765.195 JLINK_SetBPEx(Addr = 0x20000000, Type = 0xFFFFFFF2)
T2D14 000:765.202 - 0.010ms returns 0x00000002
T2D14 000:765.210 JLINK_Go()
T2D14 000:765.224   CPU_ReadMem(4 bytes @ 0xE0001000)
T2D14 000:776.380 - 11.189ms
T2D14 000:776.406 JLINK_IsHalted()
T2D14 000:777.367 - 0.966ms returns FALSE
T2D14 000:777.379 JLINK_HasError()
T2D14 000:784.554 JLINK_IsHalted()
T2D14 000:785.604 - 1.055ms returns FALSE
T2D14 000:785.615 JLINK_HasError()
T2D14 000:787.543 JLINK_IsHalted()
T2D14 000:788.463 - 0.924ms returns FALSE
T2D14 000:788.538 JLINK_HasError()
T2D14 000:790.543 JLINK_IsHalted()
T2D14 000:791.453 - 0.915ms returns FALSE
T2D14 000:791.464 JLINK_HasError()
T2D14 000:792.541 JLINK_IsHalted()
T2D14 000:793.501 - 0.964ms returns FALSE
T2D14 000:793.511 JLINK_HasError()
T2D14 000:794.547 JLINK_IsHalted()
T2D14 000:795.535 - 0.996ms returns FALSE
T2D14 000:795.548 JLINK_HasError()
T2D14 000:797.571 JLINK_IsHalted()
T2D14 000:809.108   CPU_ReadMem(2 bytes @ 0x20000000)
T2D14 000:809.966 - 12.400ms returns TRUE
T2D14 000:809.978 JLINK_ReadReg(R15 (PC))
T2D14 000:809.988 - 0.013ms returns 0x20000000
T2D14 000:809.996 JLINK_ClrBPEx(BPHandle = 0x00000002)
T2D14 000:810.003 - 0.010ms returns 0x00
T2D14 000:810.011 JLINK_ReadReg(R0)
T2D14 000:810.018 - 0.009ms returns 0x00000000
T2D14 000:860.670 JLINK_HasError()
T2D14 000:860.694 JLINK_WriteReg(R0, 0x00000001)
T2D14 000:860.707 - 0.016ms returns 0
T2D14 000:860.715 JLINK_WriteReg(R1, 0x00B71B00)
T2D14 000:860.722 - 0.010ms returns 0
T2D14 000:860.729 JLINK_WriteReg(R2, 0x00000001)
T2D14 000:860.736 - 0.009ms returns 0
T2D14 000:860.742 JLINK_WriteReg(R3, 0x00000000)
T2D14 000:860.749 - 0.009ms returns 0
T2D14 000:860.755 JLINK_WriteReg(R4, 0x00000000)
T2D14 000:860.762 - 0.009ms returns 0
T2D14 000:860.768 JLINK_WriteReg(R5, 0x00000000)
T2D14 000:860.774 - 0.009ms returns 0
T2D14 000:860.781 JLINK_WriteReg(R6, 0x00000000)
T2D14 000:860.787 - 0.009ms returns 0
T2D14 000:860.794 JLINK_WriteReg(R7, 0x00000000)
T2D14 000:860.800 - 0.009ms returns 0
T2D14 000:860.807 JLINK_WriteReg(R8, 0x00000000)
T2D14 000:860.813 - 0.009ms returns 0
T2D14 000:860.820 JLINK_WriteReg(R9, 0x20000160)
T2D14 000:860.826 - 0.009ms returns 0
T2D14 000:860.833 JLINK_WriteReg(R10, 0x00000000)
T2D14 000:860.839 - 0.009ms returns 0
T2D14 000:860.846 JLINK_WriteReg(R11, 0x00000000)
T2D14 000:860.852 - 0.009ms returns 0
T2D14 000:860.858 JLINK_WriteReg(R12, 0x00000000)
T2D14 000:860.865 - 0.009ms returns 0
T2D14 000:860.871 JLINK_WriteReg(R13 (SP), 0x20001000)
T2D14 000:860.880 - 0.011ms returns 0
T2D14 000:860.886 JLINK_WriteReg(R14, 0x20000001)
T2D14 000:860.892 - 0.009ms returns 0
T2D14 000:860.899 JLINK_WriteReg(R15 (PC), 0x2000006A)
T2D14 000:860.906 - 0.009ms returns 0
T2D14 000:860.912 JLINK_WriteReg(XPSR, 0x01000000)
T2D14 000:860.918 - 0.009ms returns 0
T2D14 000:860.925 JLINK_WriteReg(MSP, 0x20001000)
T2D14 000:860.931 - 0.009ms returns 0
T2D14 000:860.938 JLINK_WriteReg(PSP, 0x20001000)
T2D14 000:860.944 - 0.009ms returns 0
T2D14 000:860.951 JLINK_WriteReg(CFBP, 0x00000000)
T2D14 000:860.957 - 0.009ms returns 0
T2D14 000:860.964 JLINK_SetBPEx(Addr = 0x20000000, Type = 0xFFFFFFF2)
T2D14 000:860.972 - 0.011ms returns 0x00000003
T2D14 000:860.980 JLINK_Go()
T2D14 000:860.998   CPU_ReadMem(4 bytes @ 0xE0001000)
T2D14 000:872.506 - 11.558ms
T2D14 000:872.548 JLINK_IsHalted()
T2D14 000:884.213   CPU_ReadMem(2 bytes @ 0x20000000)
T2D14 000:885.205 - 12.677ms returns TRUE
T2D14 000:885.235 JLINK_ReadReg(R15 (PC))
T2D14 000:885.245 - 0.012ms returns 0x20000000
T2D14 000:885.290 JLINK_ClrBPEx(BPHandle = 0x00000003)
T2D14 000:885.299 - 0.011ms returns 0x00
T2D14 000:885.309 JLINK_ReadReg(R0)
T2D14 000:885.318 - 0.012ms returns 0x00000000
T2D14 000:887.605 JLINK_WriteMem(0x20000000, 0x164 Bytes, ...)
T2D14 000:887.623   Data:  00 BE 0A E0 0D 78 2D 06 68 40 08 24 40 00 00 D3 ...
T2D14 000:887.640   CPU_WriteMem(356 bytes @ 0x20000000)
T2D14 000:897.288 - 9.703ms returns 0x164
T2D14 000:897.341 JLINK_HasError()
T2D14 000:897.350 JLINK_WriteReg(R0, 0x08000000)
T2D14 000:897.359 - 0.012ms returns 0
T2D14 000:897.367 JLINK_WriteReg(R1, 0x00B71B00)
T2D14 000:897.374 - 0.009ms returns 0
T2D14 000:897.380 JLINK_WriteReg(R2, 0x00000002)
T2D14 000:897.387 - 0.009ms returns 0
T2D14 000:897.394 JLINK_WriteReg(R3, 0x00000000)
T2D14 000:897.400 - 0.009ms returns 0
T2D14 000:897.406 JLINK_WriteReg(R4, 0x00000000)
T2D14 000:897.413 - 0.009ms returns 0
T2D14 000:897.419 JLINK_WriteReg(R5, 0x00000000)
T2D14 000:897.425 - 0.009ms returns 0
T2D14 000:897.432 JLINK_WriteReg(R6, 0x00000000)
T2D14 000:897.446 - 0.016ms returns 0
T2D14 000:897.453 JLINK_WriteReg(R7, 0x00000000)
T2D14 000:897.459 - 0.009ms returns 0
T2D14 000:897.466 JLINK_WriteReg(R8, 0x00000000)
T2D14 000:897.472 - 0.009ms returns 0
T2D14 000:897.479 JLINK_WriteReg(R9, 0x20000160)
T2D14 000:897.485 - 0.009ms returns 0
T2D14 000:897.492 JLINK_WriteReg(R10, 0x00000000)
T2D14 000:897.498 - 0.009ms returns 0
T2D14 000:897.505 JLINK_WriteReg(R11, 0x00000000)
T2D14 000:897.511 - 0.009ms returns 0
T2D14 000:897.517 JLINK_WriteReg(R12, 0x00000000)
T2D14 000:897.523 - 0.009ms returns 0
T2D14 000:897.542 JLINK_WriteReg(R13 (SP), 0x20001000)
T2D14 000:897.550 - 0.022ms returns 0
T2D14 000:897.557 JLINK_WriteReg(R14, 0x20000001)
T2D14 000:897.563 - 0.009ms returns 0
T2D14 000:897.570 JLINK_WriteReg(R15 (PC), 0x20000038)
T2D14 000:897.576 - 0.009ms returns 0
T2D14 000:897.583 JLINK_WriteReg(XPSR, 0x01000000)
T2D14 000:897.590 - 0.009ms returns 0
T2D14 000:897.596 JLINK_WriteReg(MSP, 0x20001000)
T2D14 000:897.603 - 0.009ms returns 0
T2D14 000:897.610 JLINK_WriteReg(PSP, 0x20001000)
T2D14 000:897.616 - 0.009ms returns 0
T2D14 000:897.623 JLINK_WriteReg(CFBP, 0x00000000)
T2D14 000:897.629 - 0.009ms returns 0
T2D14 000:897.636 JLINK_SetBPEx(Addr = 0x20000000, Type = 0xFFFFFFF2)
T2D14 000:897.647   CPU_ReadMem(2 bytes @ 0x20000000)
T2D14 000:898.609 - 0.987ms returns 0x00000004
T2D14 000:898.631 JLINK_Go()
T2D14 000:898.640   CPU_WriteMem(2 bytes @ 0x20000000)
T2D14 000:899.578   CPU_ReadMem(4 bytes @ 0xE0001000)
T2D14 000:910.909 - 12.287ms
T2D14 000:910.928 JLINK_IsHalted()
T2D14 000:922.452   CPU_ReadMem(2 bytes @ 0x20000000)
T2D14 000:923.354 - 12.431ms returns TRUE
T2D14 000:923.370 JLINK_ReadReg(R15 (PC))
T2D14 000:923.380 - 0.013ms returns 0x20000000
T2D14 000:923.390 JLINK_ClrBPEx(BPHandle = 0x00000004)
T2D14 000:923.396 - 0.009ms returns 0x00
T2D14 000:923.406 JLINK_ReadReg(R0)
T2D14 000:923.413 - 0.009ms returns 0x00000000
T2D14 000:923.452 JLINK_WriteMem(0x20000164, 0x29C Bytes, ...)
T2D14 000:923.460   Data:  38 05 00 20 49 01 00 08 A1 13 00 08 77 12 00 08 ...
T2D14 000:923.476   CPU_WriteMem(668 bytes @ 0x20000164)
T2D14 000:940.415 - 16.982ms returns 0x29C
T2D14 000:940.446 JLINK_WriteMem(0x20000400, 0x164 Bytes, ...)
T2D14 000:940.453   Data:  10 0C 01 40 00 18 01 40 10 B5 04 46 04 48 00 68 ...
T2D14 000:940.477   CPU_WriteMem(356 bytes @ 0x20000400)
T2D14 000:950.134 - 9.703ms returns 0x164
T2D14 000:950.162 JLINK_HasError()
T2D14 000:950.211 JLINK_WriteReg(R0, 0x08000000)
T2D14 000:950.225 - 0.017ms returns 0
T2D14 000:950.233 JLINK_WriteReg(R1, 0x00000400)
T2D14 000:950.240 - 0.010ms returns 0
T2D14 000:950.247 JLINK_WriteReg(R2, 0x20000164)
T2D14 000:950.254 - 0.009ms returns 0
T2D14 000:950.260 JLINK_WriteReg(R3, 0x00000000)
T2D14 000:950.267 - 0.009ms returns 0
T2D14 000:950.273 JLINK_WriteReg(R4, 0x00000000)
T2D14 000:950.280 - 0.009ms returns 0
T2D14 000:950.287 JLINK_WriteReg(R5, 0x00000000)
T2D14 000:950.293 - 0.009ms returns 0
T2D14 000:950.299 JLINK_WriteReg(R6, 0x00000000)
T2D14 000:950.305 - 0.009ms returns 0
T2D14 000:950.312 JLINK_WriteReg(R7, 0x00000000)
T2D14 000:950.318 - 0.009ms returns 0
T2D14 000:950.325 JLINK_WriteReg(R8, 0x00000000)
T2D14 000:950.331 - 0.009ms returns 0
T2D14 000:950.338 JLINK_WriteReg(R9, 0x20000160)
T2D14 000:950.344 - 0.009ms returns 0
T2D14 000:950.351 JLINK_WriteReg(R10, 0x00000000)
T2D14 000:950.357 - 0.009ms returns 0
T2D14 000:950.364 JLINK_WriteReg(R11, 0x00000000)
T2D14 000:950.370 - 0.009ms returns 0
T2D14 000:950.377 JLINK_WriteReg(R12, 0x00000000)
T2D14 000:950.383 - 0.009ms returns 0
T2D14 000:950.389 JLINK_WriteReg(R13 (SP), 0x20001000)
T2D14 000:950.396 - 0.010ms returns 0
T2D14 000:950.403 JLINK_WriteReg(R14, 0x20000001)
T2D14 000:950.409 - 0.009ms returns 0
T2D14 000:950.416 JLINK_WriteReg(R15 (PC), 0x200000F4)
T2D14 000:950.422 - 0.009ms returns 0
T2D14 000:950.429 JLINK_WriteReg(XPSR, 0x01000000)
T2D14 000:950.435 - 0.009ms returns 0
T2D14 000:950.442 JLINK_WriteReg(MSP, 0x20001000)
T2D14 000:950.454 - 0.017ms returns 0
T2D14 000:950.463 JLINK_WriteReg(PSP, 0x20001000)
T2D14 000:950.470 - 0.009ms returns 0
T2D14 000:950.476 JLINK_WriteReg(CFBP, 0x00000000)
T2D14 000:950.483 - 0.009ms returns 0
T2D14 000:950.490 JLINK_SetBPEx(Addr = 0x20000000, Type = 0xFFFFFFF2)
T2D14 000:950.498 - 0.011ms returns 0x00000005
T2D14 000:950.505 JLINK_Go()
T2D14 000:950.520   CPU_ReadMem(4 bytes @ 0xE0001000)
T2D14 000:961.665 - 11.172ms
T2D14 000:961.683 JLINK_IsHalted()
T2D14 000:962.667 - 0.993ms returns FALSE
T2D14 000:962.684 JLINK_HasError()
T2D14 000:964.542 JLINK_IsHalted()
T2D14 000:965.508 - 0.971ms returns FALSE
T2D14 000:965.519 JLINK_HasError()
T2D14 000:967.547 JLINK_IsHalted()
T2D14 000:968.504 - 0.963ms returns FALSE
T2D14 000:968.517 JLINK_HasError()
T2D14 000:970.544 JLINK_IsHalted()
T2D14 000:971.483 - 0.943ms returns FALSE
T2D14 000:971.493 JLINK_HasError()
T2D14 000:972.540 JLINK_IsHalted()
T2D14 000:973.531 - 0.997ms returns FALSE
T2D14 000:973.543 JLINK_HasError()
T2D14 000:975.543 JLINK_IsHalted()
T2D14 000:976.535 - 0.999ms returns FALSE
T2D14 000:976.546 JLINK_HasError()
T2D14 000:978.541 JLINK_IsHalted()
T2D14 000:979.504 - 0.968ms returns FALSE
T2D14 000:979.514 JLINK_HasError()
T2D14 000:981.567 JLINK_IsHalted()
T2D14 000:982.515 - 0.957ms returns FALSE
T2D14 000:982.532 JLINK_HasError()
T2D14 000:984.543 JLINK_IsHalted()
T2D14 000:985.498 - 0.959ms returns FALSE
T2D14 000:985.508 JLINK_HasError()
T2D14 000:986.540 JLINK_IsHalted()
T2D14 000:987.546 - 1.010ms returns FALSE
T2D14 000:987.556 JLINK_HasError()
T2D14 000:989.545 JLINK_IsHalted()
T2D14 000:990.566 - 1.025ms returns FALSE
T2D14 000:990.575 JLINK_HasError()
T2D14 000:992.540 JLINK_IsHalted()
T2D14 001:004.131   CPU_ReadMem(2 bytes @ 0x20000000)
T2D14 001:005.087 - 12.551ms returns TRUE
T2D14 001:005.101 JLINK_ReadReg(R15 (PC))
T2D14 001:005.110 - 0.012ms returns 0x20000000
T2D14 001:005.120 JLINK_ClrBPEx(BPHandle = 0x00000005)
T2D14 001:005.127 - 0.009ms returns 0x00
T2D14 001:005.136 JLINK_ReadReg(R0)
T2D14 001:005.142 - 0.010ms returns 0x00000000
T2D14 001:005.188 JLINK_WriteMem(0x20000164, 0x29C Bytes, ...)
T2D14 001:005.195   Data:  DC 81 D8 F8 18 80 48 F0 01 08 DF F8 D0 91 C9 F8 ...
T2D14 001:005.210   CPU_WriteMem(668 bytes @ 0x20000164)
T2D14 001:022.126 - 16.950ms returns 0x29C
T2D14 001:022.146 JLINK_WriteMem(0x20000400, 0x164 Bytes, ...)
T2D14 001:022.154   Data:  04 0F 02 D9 4F F0 04 0A 01 E0 C0 F1 07 0A D1 46 ...
T2D14 001:022.171   CPU_WriteMem(356 bytes @ 0x20000400)
T2D14 001:031.764 - 9.627ms returns 0x164
T2D14 001:031.784 JLINK_HasError()
T2D14 001:031.827 JLINK_WriteReg(R0, 0x08000400)
T2D14 001:031.838 - 0.013ms returns 0
T2D14 001:031.846 JLINK_WriteReg(R1, 0x00000400)
T2D14 001:031.853 - 0.010ms returns 0
T2D14 001:031.860 JLINK_WriteReg(R2, 0x20000164)
T2D14 001:031.866 - 0.009ms returns 0
T2D14 001:031.873 JLINK_WriteReg(R3, 0x00000000)
T2D14 001:031.879 - 0.009ms returns 0
T2D14 001:031.886 JLINK_WriteReg(R4, 0x00000000)
T2D14 001:031.892 - 0.009ms returns 0
T2D14 001:031.899 JLINK_WriteReg(R5, 0x00000000)
T2D14 001:031.905 - 0.009ms returns 0
T2D14 001:031.912 JLINK_WriteReg(R6, 0x00000000)
T2D14 001:031.918 - 0.009ms returns 0
T2D14 001:031.925 JLINK_WriteReg(R7, 0x00000000)
T2D14 001:031.931 - 0.009ms returns 0
T2D14 001:031.938 JLINK_WriteReg(R8, 0x00000000)
T2D14 001:031.944 - 0.009ms returns 0
T2D14 001:031.951 JLINK_WriteReg(R9, 0x20000160)
T2D14 001:031.957 - 0.009ms returns 0
T2D14 001:031.963 JLINK_WriteReg(R10, 0x00000000)
T2D14 001:031.970 - 0.009ms returns 0
T2D14 001:031.976 JLINK_WriteReg(R11, 0x00000000)
T2D14 001:031.983 - 0.009ms returns 0
T2D14 001:031.989 JLINK_WriteReg(R12, 0x00000000)
T2D14 001:031.995 - 0.008ms returns 0
T2D14 001:032.002 JLINK_WriteReg(R13 (SP), 0x20001000)
T2D14 001:032.009 - 0.009ms returns 0
T2D14 001:032.016 JLINK_WriteReg(R14, 0x20000001)
T2D14 001:032.022 - 0.009ms returns 0
T2D14 001:032.029 JLINK_WriteReg(R15 (PC), 0x200000F4)
T2D14 001:032.035 - 0.013ms returns 0
T2D14 001:032.049 JLINK_WriteReg(XPSR, 0x01000000)
T2D14 001:032.055 - 0.009ms returns 0
T2D14 001:032.062 JLINK_WriteReg(MSP, 0x20001000)
T2D14 001:032.068 - 0.009ms returns 0
T2D14 001:032.075 JLINK_WriteReg(PSP, 0x20001000)
T2D14 001:032.081 - 0.009ms returns 0
T2D14 001:032.088 JLINK_WriteReg(CFBP, 0x00000000)
T2D14 001:032.094 - 0.009ms returns 0
T2D14 001:032.101 JLINK_SetBPEx(Addr = 0x20000000, Type = 0xFFFFFFF2)
T2D14 001:032.108 - 0.010ms returns 0x00000006
T2D14 001:032.115 JLINK_Go()
T2D14 001:032.129   CPU_ReadMem(4 bytes @ 0xE0001000)
T2D14 001:043.273 - 11.167ms
T2D14 001:043.288 JLINK_IsHalted()
T2D14 001:044.255 - 0.971ms returns FALSE
T2D14 001:044.265 JLINK_HasError()
T2D14 001:045.586 JLINK_IsHalted()
T2D14 001:046.627 - 1.051ms returns FALSE
T2D14 001:046.645 JLINK_HasError()
T2D14 001:048.088 JLINK_IsHalted()
T2D14 001:049.089 - 1.011ms returns FALSE
T2D14 001:049.107 JLINK_HasError()
T2D14 001:051.102 JLINK_IsHalted()
T2D14 001:052.105 - 1.013ms returns FALSE
T2D14 001:052.123 JLINK_HasError()
T2D14 001:054.083 JLINK_IsHalted()
T2D14 001:055.011 - 0.933ms returns FALSE
T2D14 001:055.022 JLINK_HasError()
T2D14 001:056.081 JLINK_IsHalted()
T2D14 001:057.087 - 1.016ms returns FALSE
T2D14 001:057.107 JLINK_HasError()
T2D14 001:059.085 JLINK_IsHalted()
T2D14 001:060.088 - 1.007ms returns FALSE
T2D14 001:060.098 JLINK_HasError()
T2D14 001:062.085 JLINK_IsHalted()
T2D14 001:063.090 - 1.009ms returns FALSE
T2D14 001:063.100 JLINK_HasError()
T2D14 001:065.081 JLINK_IsHalted()
T2D14 001:066.089 - 1.012ms returns FALSE
T2D14 001:066.098 JLINK_HasError()
T2D14 001:068.082 JLINK_IsHalted()
T2D14 001:069.086 - 1.008ms returns FALSE
T2D14 001:069.095 JLINK_HasError()
T2D14 001:071.080 JLINK_IsHalted()
T2D14 001:072.090 - 1.014ms returns FALSE
T2D14 001:072.099 JLINK_HasError()
T2D14 001:074.081 JLINK_IsHalted()
T2D14 001:085.545   CPU_ReadMem(2 bytes @ 0x20000000)
T2D14 001:086.468 - 12.392ms returns TRUE
T2D14 001:086.482 JLINK_ReadReg(R15 (PC))
T2D14 001:086.491 - 0.012ms returns 0x20000000
T2D14 001:086.501 JLINK_ClrBPEx(BPHandle = 0x00000006)
T2D14 001:086.508 - 0.010ms returns 0x00
T2D14 001:086.517 JLINK_ReadReg(R0)
T2D14 001:086.524 - 0.009ms returns 0x00000000
T2D14 001:086.567 JLINK_WriteMem(0x20000164, 0x29C Bytes, ...)
T2D14 001:086.574   Data:  40 68 00 F0 0C 00 00 28 F0 D1 20 48 00 68 00 F0 ...
T2D14 001:086.589   CPU_WriteMem(668 bytes @ 0x20000164)
T2D14 001:103.493 - 16.936ms returns 0x29C
T2D14 001:103.510 JLINK_WriteMem(0x20000400, 0x164 Bytes, ...)
T2D14 001:103.517   Data:  0C 00 08 28 18 D1 B4 48 40 68 00 F4 80 30 98 B9 ...
T2D14 001:103.532   CPU_WriteMem(356 bytes @ 0x20000400)
T2D14 001:113.102 - 9.600ms returns 0x164
T2D14 001:113.120 JLINK_HasError()
T2D14 001:113.154 JLINK_WriteReg(R0, 0x08000800)
T2D14 001:113.164 - 0.013ms returns 0
T2D14 001:113.172 JLINK_WriteReg(R1, 0x00000400)
T2D14 001:113.179 - 0.010ms returns 0
T2D14 001:113.186 JLINK_WriteReg(R2, 0x20000164)
T2D14 001:113.192 - 0.009ms returns 0
T2D14 001:113.199 JLINK_WriteReg(R3, 0x00000000)
T2D14 001:113.205 - 0.009ms returns 0
T2D14 001:113.212 JLINK_WriteReg(R4, 0x00000000)
T2D14 001:113.218 - 0.009ms returns 0
T2D14 001:113.225 JLINK_WriteReg(R5, 0x00000000)
T2D14 001:113.231 - 0.009ms returns 0
T2D14 001:113.237 JLINK_WriteReg(R6, 0x00000000)
T2D14 001:113.243 - 0.008ms returns 0
T2D14 001:113.250 JLINK_WriteReg(R7, 0x00000000)
T2D14 001:113.256 - 0.009ms returns 0
T2D14 001:113.263 JLINK_WriteReg(R8, 0x00000000)
T2D14 001:113.269 - 0.009ms returns 0
T2D14 001:113.276 JLINK_WriteReg(R9, 0x20000160)
T2D14 001:113.282 - 0.009ms returns 0
T2D14 001:113.288 JLINK_WriteReg(R10, 0x00000000)
T2D14 001:113.295 - 0.009ms returns 0
T2D14 001:113.301 JLINK_WriteReg(R11, 0x00000000)
T2D14 001:113.307 - 0.009ms returns 0
T2D14 001:113.314 JLINK_WriteReg(R12, 0x00000000)
T2D14 001:113.320 - 0.009ms returns 0
T2D14 001:113.327 JLINK_WriteReg(R13 (SP), 0x20001000)
T2D14 001:113.334 - 0.009ms returns 0
T2D14 001:113.340 JLINK_WriteReg(R14, 0x20000001)
T2D14 001:113.350 - 0.014ms returns 0
T2D14 001:113.359 JLINK_WriteReg(R15 (PC), 0x200000F4)
T2D14 001:113.365 - 0.009ms returns 0
T2D14 001:113.372 JLINK_WriteReg(XPSR, 0x01000000)
T2D14 001:113.379 - 0.009ms returns 0
T2D14 001:113.385 JLINK_WriteReg(MSP, 0x20001000)
T2D14 001:113.392 - 0.009ms returns 0
T2D14 001:113.398 JLINK_WriteReg(PSP, 0x20001000)
T2D14 001:113.405 - 0.009ms returns 0
T2D14 001:113.411 JLINK_WriteReg(CFBP, 0x00000000)
T2D14 001:113.417 - 0.009ms returns 0
T2D14 001:113.424 JLINK_SetBPEx(Addr = 0x20000000, Type = 0xFFFFFFF2)
T2D14 001:113.432 - 0.010ms returns 0x00000007
T2D14 001:113.439 JLINK_Go()
T2D14 001:113.453   CPU_ReadMem(4 bytes @ 0xE0001000)
T2D14 001:124.558 - 11.129ms
T2D14 001:124.574 JLINK_IsHalted()
T2D14 001:125.507 - 0.943ms returns FALSE
